<Qucs Dataset 0.0.19>
<indep R2 101>
  +0.00000000000000000000e+000
  +5.00000000000000000000e+000
  +1.00000000000000000000e+001
  +1.50000000000000000000e+001
  +2.00000000000000000000e+001
  +2.50000000000000000000e+001
  +3.00000000000000000000e+001
  +3.50000000000000000000e+001
  +4.00000000000000000000e+001
  +4.50000000000000000000e+001
  +5.00000000000000000000e+001
  +5.50000000000000000000e+001
  +6.00000000000000000000e+001
  +6.50000000000000000000e+001
  +7.00000000000000000000e+001
  +7.50000000000000000000e+001
  +8.00000000000000000000e+001
  +8.50000000000000000000e+001
  +9.00000000000000000000e+001
  +9.50000000000000000000e+001
  +1.00000000000000000000e+002
  +1.05000000000000000000e+002
  +1.10000000000000000000e+002
  +1.15000000000000000000e+002
  +1.20000000000000000000e+002
  +1.25000000000000000000e+002
  +1.30000000000000000000e+002
  +1.35000000000000000000e+002
  +1.40000000000000000000e+002
  +1.45000000000000000000e+002
  +1.50000000000000000000e+002
  +1.55000000000000000000e+002
  +1.60000000000000000000e+002
  +1.65000000000000000000e+002
  +1.70000000000000000000e+002
  +1.75000000000000000000e+002
  +1.80000000000000000000e+002
  +1.85000000000000000000e+002
  +1.90000000000000000000e+002
  +1.95000000000000000000e+002
  +2.00000000000000000000e+002
  +2.05000000000000000000e+002
  +2.10000000000000000000e+002
  +2.15000000000000000000e+002
  +2.20000000000000000000e+002
  +2.25000000000000000000e+002
  +2.30000000000000000000e+002
  +2.35000000000000000000e+002
  +2.40000000000000000000e+002
  +2.45000000000000000000e+002
  +2.50000000000000000000e+002
  +2.55000000000000000000e+002
  +2.60000000000000000000e+002
  +2.65000000000000000000e+002
  +2.70000000000000000000e+002
  +2.75000000000000000000e+002
  +2.80000000000000000000e+002
  +2.85000000000000000000e+002
  +2.90000000000000000000e+002
  +2.95000000000000000000e+002
  +3.00000000000000000000e+002
  +3.05000000000000000000e+002
  +3.10000000000000000000e+002
  +3.15000000000000000000e+002
  +3.20000000000000000000e+002
  +3.25000000000000000000e+002
  +3.30000000000000000000e+002
  +3.35000000000000000000e+002
  +3.40000000000000000000e+002
  +3.45000000000000000000e+002
  +3.50000000000000000000e+002
  +3.55000000000000000000e+002
  +3.60000000000000000000e+002
  +3.65000000000000000000e+002
  +3.70000000000000000000e+002
  +3.75000000000000000000e+002
  +3.80000000000000000000e+002
  +3.85000000000000000000e+002
  +3.90000000000000000000e+002
  +3.95000000000000000000e+002
  +4.00000000000000000000e+002
  +4.05000000000000000000e+002
  +4.10000000000000000000e+002
  +4.15000000000000000000e+002
  +4.20000000000000000000e+002
  +4.25000000000000000000e+002
  +4.30000000000000000000e+002
  +4.35000000000000000000e+002
  +4.40000000000000000000e+002
  +4.45000000000000000000e+002
  +4.50000000000000000000e+002
  +4.55000000000000000000e+002
  +4.60000000000000000000e+002
  +4.65000000000000000000e+002
  +4.70000000000000000000e+002
  +4.75000000000000000000e+002
  +4.80000000000000000000e+002
  +4.85000000000000000000e+002
  +4.90000000000000000000e+002
  +4.95000000000000000000e+002
  +5.00000000000000000000e+002
</indep>
<dep klog R2>
  +0.00000000000000000000e+000
  -7.90204996956554550636e-001
  -1.45106801420858633200e+000
  -2.01346965699774216318e+000
  -2.49884712031037858893e+000
  -2.92263516968476633195e+000
  -3.29627882593159293734e+000
  -3.62847325783298524371e+000
  -3.92596058970734285154e+000
  -4.19406029385764789197e+000
  -4.43703290192565535932e+000
  -4.65833585592462640079e+000
  -4.86080750806127159791e+000
  -5.04680203425876605650e+000
  -5.21829006279154850034e+000
  -5.37693488224176530110e+000
  -5.52415094821913577050e+000
  -5.66114935653181206021e+000
  -5.78897358277710250007e+000
  -5.90852785876762176542e+000
  -6.02059991327962418239e+000
  -6.12587935277893080865e+000
  -6.22497263558508340253e+000
  -6.31841536008880044761e+000
  -6.40668241727881238035e+000
  -6.49019643176600347090e+000
  -6.56933482121123457631e+000
  -6.64443573285867028488e+000
  -6.71580306160656803627e+000
  -6.78371071232953948282e+000
  -6.84840623683987992365e+000
  -6.91011395063718403264e+000
  -6.96903761475141614312e+000
  -7.02536275227772311069e+000
  -7.07925865669042142514e+000
  -7.13088013899915829086e+000
  -7.18036905273260117610e+000
  -7.22785562919135671223e+000
  -7.27345965008357175918e+000
  -7.31729148029748888149e+000
  -7.35945297998196501510e+000
  -7.40003831214796203852e+000
  -7.43913465955160724263e+000
  -7.47682286257827044551e+000
  -7.51317798814155146658e+000
  -7.54826983818070473831e+000
  -7.58216340513647590882e+000
  -7.61491928076873314524e+000
  -7.64659402381828279260e+000
  -7.67724049128342223014e+000
  -7.70690813745815805902e+000
  -7.73564328434566572668e+000
  -7.76348936660371435892e+000
  -7.79048715378572786960e+000
  -7.81667495230278230878e+000
  -7.84208878923934893379e+000
  -7.86676257990220229033e+000
  -7.89072828076228383054e+000
  -7.91401602925788427711e+000
  -7.93665427176082793892e+000
  -7.95866988086166937677e+000
  -7.98008826300229934247e+000
  -8.00093345737250238869e+000
  -8.02122822688860992457e+000
  -8.04099414198584483415e+000
  -8.06025165787944075646e+000
  -8.07902018588220371953e+000
  -8.09731815930633302969e+000
  -8.11516309442428429577e+000
  -8.13257164691649236943e+000
  -8.14955966419172739279e+000
  -8.16614223392864779782e+000
  -8.18233372915380563484e+000
  -8.19814785014154345788e+000
  -8.21359766339465480200e+000
  -8.22869563794080427499e+000
  -8.24345367915827154093e+000
  -8.25788316032536506839e+000
  -8.27199495207055868207e+000
  -8.28579944988478800383e+000
  -8.29930659984329643919e+000
  -8.31252592267172474294e+000
  -8.32546653627968247235e+000
  -8.33813717687462307993e+000
  -8.35054621875943681175e+000
  -8.36270169290866327572e+000
  -8.37461130441047707507e+000
  -8.38628244885453710822e+000
  -8.39772222773937393470e+000
  -8.40893746296716493305e+000
  -8.41993471048846586768e+000
  -8.43072027315455230223e+000
  -8.44130021283056919401e+000
  -8.45168036181876658475e+000
  -8.46186633363721085743e+000
  -8.47186353319608898005e+000
  -8.48167716641057545246e+000
  -8.49131224928636640925e+000
  -8.50077361651132967779e+000
  -8.51006592958438901064e+000
  -8.51919368451046388202e+000
</dep>
<dep k R2>
  +1.00000000000000000000e+000
  +9.13039886250483712082e-001
  +8.46148520259406566879e-001
  +7.93097383585594672972e-001
  +7.49993749531214781712e-001
  +7.14279591399385571648e-001
  +6.84204708743229694790e-001
  +6.58531171564956663289e-001
  +6.36358677370378100768e-001
  +6.17016794653287181660e-001
  +5.99995999759985632060e-001
  +5.84902135785300703041e-001
  +5.71425510029144545499e-001
  +5.59319419560755037857e-001
  +5.48384911430626842410e-001
  +5.38459763218019471509e-001
  +5.29410380549558468033e-001
  +5.21125748806627875354e-001
  +5.13512856065581724252e-001
  +5.06493186018512675517e-001
  +5.00000000000000000000e-001
  +4.93976208463309696128e-001
  +4.88372687968482266374e-001
  +4.83146938559952943137e-001
  +4.78262003834965976345e-001
  +4.73685595633477396493e-001
  +4.69389379501486736501e-001
  +4.65348387499220250696e-001
  +4.61540532639967970852e-001
  +4.57946205013126661498e-001
  +4.54547933996999831141e-001
  +4.51330104279042687576e-001
  +4.48278715942438787945e-001
  +4.45381180842508106466e-001
  +4.42626149026268400632e-001
  +4.40003360147846522832e-001
  +4.37503515778815355031e-001
  +4.35118169263853438178e-001
  +4.32839630372060857333e-001
  +4.30660882475960626881e-001
  +4.28575510379016311191e-001
  +4.26577637227881834026e-001
  +4.24661869202664743472e-001
  +4.22823246888962500645e-001
  +4.21057202408522457393e-001
  +4.19359521528322121142e-001
  +4.17726310086370622443e-001
  +4.16153964171179890918e-001
  +4.14639143574245749857e-001
  +4.13178748103963600080e-001
  +4.11769896407499058633e-001
  +4.10409906996183126981e-001
  +4.09096281211504209097e-001
  +4.07826687904031759402e-001
  +4.06598949627622274772e-001
  +4.05411030176899056521e-001
  +4.04261023317963930079e-001
  +4.03147142581140760509e-001
  +4.02067712000791832594e-001
  +4.01021157701247965566e-001
  +4.00006000240009595981e-001
  +3.99020847629880826002e-001
  +3.98064388970823079816e-001
  +3.97135388630266150667e-001
  +3.96232680917545765364e-001
  +3.95355165204205716289e-001
  +3.94501801447213085172e-001
  +3.93671606076800295604e-001
  +3.92863648214751337573e-001
  +3.92077046192560008109e-001
  +3.91310964342083011935e-001
  +3.90564610034125792026e-001
  +3.89837230942901125097e-001
  +3.89128112516512081331e-001
  +3.88436575635582481691e-001
  +3.87761974443906975996e-001
  +3.87103694336554948752e-001
  +3.86461150092254568378e-001
  +3.85833784138128188523e-001
  +3.85221064935964474518e-001
  +3.84622485480210773989e-001
  +3.84037561898764867596e-001
  +3.83465832148450813666e-001
  +3.82906854797786022626e-001
  +3.82360207890301728728e-001
  +3.81825487882264558159e-001
  +3.81302308649178689492e-001
  +3.80790300555928717952e-001
  +3.80289109585857487694e-001
  +3.79798396524467229973e-001
  +3.79317836193786672716e-001
  +3.78847116733773858765e-001
  +3.78385938927418896682e-001
  +3.77934015566474657000e-001
  +3.77491070854992505357e-001
  +3.77056839848059766052e-001
  +3.76631067923337392589e-001
  +3.76213510283184338068e-001
  +3.75803931485323317041e-001
  +3.75402105000156027792e-001
  +3.75007812792979733363e-001
</dep>
<dep V1.I R2>
  -6.00016000960057610536e-002
  -5.85601396943019672503e-002
  -5.73786294967919829890e-002
  -5.63925672297614435924e-002
  -5.55571605932847073506e-002
  -5.48403330877845832103e-002
  -5.42185107722871276192e-002
  -5.36739801232999566571e-002
  -5.31931734879622225565e-002
  -5.27655232006176283521e-002
  -5.23826758460278901763e-002
  -5.20379411843478051347e-002
  -5.17258978521125192818e-002
  -5.14421061598289083849e-002
  -5.11828955189945825066e-002
  -5.09452048132019788551e-002
  -5.07264609423253992615e-002
  -5.05244852979854289221e-002
  -5.03374209529814722885e-002
  -5.01636754028436798736e-002
  -5.00018751171948175327e-002
  -4.98508291535674913364e-002
  -4.97094997932580814903e-002
  -4.95769786674686574468e-002
  -4.94524672123072134289e-002
  -4.93352605637715491138e-002
  -4.92247342064895676561e-002
  -4.91203328421033549867e-002
  -4.90215610583861760574e-002
  -4.89279754681648110237e-002
  -4.88391780548453821598e-002
  -4.87548105138623302790e-002
  -4.86745494203888115492e-002
  -4.85981020858933104867e-002
  -4.85252029916399263421e-002
  -4.84556107075335903978e-002
  -4.83891052209634575654e-002
  -4.83254856133754628900e-002
  -4.82645680328841059081e-002
  -4.82061839198318700661e-002
  -4.81501784492276152516e-002
  -4.80964091597553614066e-002
  -4.80447447437912858459e-002
  -4.79950639767920406165e-002
  -4.79472547676783045212e-002
  -4.79012133145552479463e-002
  -4.78568433523852282407e-002
  -4.78140554811372214816e-002
  -4.77727665645455643051e-002
  -4.77328991909693814422e-002
  -4.76943811889961044592e-002
  -4.76571451914118773829e-002
  -4.76211282419967407709e-002
  -4.75862714403165049104e-002
  -4.75525196202956634828e-002
  -4.75198210588815422861e-002
  -4.74881272115637645403e-002
  -4.74573924719045234233e-002
  -4.74275739525744713387e-002
  -4.73986312856833971741e-002
  -4.73705264404506998233e-002
  -4.73432235564840223074e-002
  -4.73166887911291578206e-002
  -4.72908901795247582633e-002
  -4.72657975061452698129e-002
  -4.72413821867466235394e-002
  -4.72176171597448873785e-002
  -4.71944767861600597558e-002
  -4.71719367573474393507e-002
  -4.71499740098182684722e-002
  -4.71285666465223740396e-002
  -4.71076938640279524462e-002
  -4.70873358850893847238e-002
  -4.70674738961437133522e-002
  -4.70480899893205850582e-002
  -4.70291671085898699278e-002
  -4.70106889997065416353e-002
  -4.69926401636441143372e-002
  -4.69750058132363743080e-002
  -4.69577718327721105318e-002
  -4.69409247403112656061e-002
  -4.69244516525106139526e-002
  -4.69083402517664754816e-002
  -4.68925787554980988414e-002
  -4.68771558874109747772e-002
  -4.68620608505924338139e-002
  -4.68472833023051010715e-002
  -4.68328133303540644627e-002
  -4.68186414309146314849e-002
  -4.68047584877162928252e-002
  -4.67911557524871499214e-002
  -4.67778248265704951758e-002
  -4.67647576436326581351e-002
  -4.67519464533870388046e-002
  -4.67393838062654595755e-002
  -4.67270625389730742683e-002
  -4.67149757608680618604e-002
  -4.67031168411115166217e-002
  -4.66914793965373595142e-002
  -4.66800572801956900615e-002
  -4.66688445705260024354e-002
</dep>
<dep Vi.V R2>
  +1.99991999519971197508e+000
  +2.07199301528490176239e+000
  +2.13106852516040090606e+000
  +2.18037163851192783426e+000
  +2.22214197033576477125e+000
  +2.25798334561077096438e+000
  +2.28907446138564374394e+000
  +2.31630099383500231980e+000
  +2.34034132560188901095e+000
  +2.36172383996911872117e+000
  +2.38086620769860557445e+000
  +2.39810294078260977102e+000
  +2.41370510739437404979e+000
  +2.42789469200855467790e+000
  +2.44085522405027077752e+000
  +2.45273975933990096010e+000
  +2.46367695288373012019e+000
  +2.47377573510072856777e+000
  +2.48312895235092634394e+000
  +2.49181622985781592305e+000
  +2.49990624414025930378e+000
  +2.50745854232162557196e+000
  +2.51452501033709596712e+000
  +2.52115106662656707215e+000
  +2.52737663938463930080e+000
  +2.53323697181142248880e+000
  +2.53876328967552167271e+000
  +2.54398335789483232006e+000
  +2.54892194708069119713e+000
  +2.55360122659175958759e+000
  +2.55804109725773098916e+000
  +2.56225947430688361095e+000
  +2.56627252898055946417e+000
  +2.57009489570533444791e+000
  +2.57373985041800379392e+000
  +2.57721946462332063277e+000
  +2.58054473895182701071e+000
  +2.58372571933122685550e+000
  +2.58677159835579484337e+000
  +2.58969080400840656608e+000
  +2.59249107753861940395e+000
  +2.59517954201223188804e+000
  +2.59776276281043561056e+000
  +2.60024680116039785815e+000
  +2.60263726161608488496e+000
  +2.60493933427223778310e+000
  +2.60715783238073850470e+000
  +2.60929722594313906470e+000
  +2.61136167177272193740e+000
  +2.61335504045153088626e+000
  +2.61528094055019488806e+000
  +2.61714274042940608922e+000
  +2.61894358790016301697e+000
  +2.62068642798417483775e+000
  +2.62237401898521671484e+000
  +2.62400894705592291345e+000
  +2.62559363942181178686e+000
  +2.62713037640477375945e+000
  +2.62862130237127633592e+000
  +2.63006843571583015517e+000
  +2.63147367797746500884e+000
  +2.63283882217579900953e+000
  +2.63416556044354210897e+000
  +2.63545549102376197581e+000
  +2.63671012469273646772e+000
  +2.63793089066266883691e+000
  +2.63911914201275576985e+000
  +2.64027616069199710935e+000
  +2.64140316213262815737e+000
  +2.64250129950908663190e+000
  +2.64357166767388118700e+000
  +2.64461530679860246096e+000
  +2.64563320574553095810e+000
  +2.64662630519281449892e+000
  +2.64759550053397063607e+000
  +2.64854164457050655912e+000
  +2.64946555001467309864e+000
  +2.65036799181779425538e+000
  +2.65124970933818149277e+000
  +2.65211140836139458443e+000
  +2.65295376298443663643e+000
  +2.65377741737446948278e+000
  +2.65458298741167642021e+000
  +2.65537106222509500242e+000
  +2.65614220562945124726e+000
  +2.65689695747037823992e+000
  +2.65763583488474486316e+000
  +2.65835933348229680462e+000
  +2.65906792845426842575e+000
  +2.65976207561418531711e+000
  +2.66044221237564260107e+000
  +2.66110875867147544938e+000
  +2.66176211781836702386e+000
  +2.66240267733064817079e+000
  +2.66303080968672700735e+000
  +2.66364687305134628659e+000
  +2.66425121195659686535e+000
  +2.66484415794442419667e+000
  +2.66542603017313206593e+000
  +2.66599713599021548305e+000
  +2.66655777147370010027e+000
</dep>
<dep Vo.V R2>
  +1.99991999519971197508e+000
  +1.89181226698752347204e+000
  +1.80320047913586911648e+000
  +1.72924704174804588774e+000
  +1.66659258832280166018e+000
  +1.61283142148947900019e+000
  +1.56619552514392967879e+000
  +1.52535640716723763788e+000
  +1.48929651055525558156e+000
  +1.45722327359399850266e+000
  +1.42851020058289046588e+000
  +1.40265553189675884482e+000
  +1.37925267205278134774e+000
  +1.35796864988886301084e+000
  +1.33852817585579053627e+000
  +1.32070167004958505252e+000
  +1.30429615317735225766e+000
  +1.28914823233403352809e+000
  +1.27511864030086008448e+000
  +1.26208794123332368464e+000
  +1.24995312207012965189e+000
  +1.23862486361497392551e+000
  +1.22802533826230320102e+000
  +1.21808641948778584307e+000
  +1.20874821599777981795e+000
  +1.19995786387324021582e+000
  +1.19166852524194633034e+000
  +1.18383855342121191434e+000
  +1.17643079311332643400e+000
  +1.16941199083456170982e+000
  +1.16275229583792016896e+000
  +1.15642483572889087640e+000
  +1.15040535404976029810e+000
  +1.14467189952654457841e+000
  +1.13920455858596514354e+000
  +1.13398522427269510260e+000
  +1.12899739591594960864e+000
  +1.12422600487533630442e+000
  +1.11965726248926733533e+000
  +1.11527852699414031790e+000
  +1.11107818670915969861e+000
  +1.10704555721371433741e+000
  +1.10317079060015821312e+000
  +1.09944479517927784507e+000
  +1.09585916426024643222e+000
  +1.09240611283071165083e+000
  +1.08907842113318631405e+000
  +1.08586938427710011368e+000
  +1.08277276714645198652e+000
  +1.07978276396494665690e+000
  +1.07689396196686049123e+000
  +1.07410130869536835085e+000
  +1.07140008251267082606e+000
  +1.06878586595983393615e+000
  +1.06625452165015555117e+000
  +1.06380217041934188593e+000
  +1.06142517148979886876e+000
  +1.05912010443570125950e+000
  +1.05688375276096069300e+000
  +1.05471308892427240167e+000
  +1.05260526066463278028e+000
  +1.05055757849744435539e+000
  +1.04856750426594436121e+000
  +1.04663264064549066390e+000
  +1.04475072150943937288e+000
  +1.04291960307521702767e+000
  +1.04113725575785553978e+000
  +1.03940175666590661763e+000
  +1.03771128268140455653e+000
  +1.03606410407152393915e+000
  +1.03445857858487499925e+000
  +1.03289314599007608919e+000
  +1.03136632301842845472e+000
  +1.02987669867623021780e+000
  +1.02842292989559158656e+000
  +1.02700373749557205549e+000
  +1.02561790242811246010e+000
  +1.02426426228560396581e+000
  +1.02294170804906303651e+000
  +1.02164918105779700674e+000
  +1.02038567018315196044e+000
  +1.01915020919049226222e+000
  +1.01794187427493909581e+000
  +1.01675978175766723588e+000
  +1.01560308593068149285e+000
  +1.01447097703903144073e+000
  +1.01336267939034074814e+000
  +1.01227744958238208284e+000
  +1.01121457484018439921e+000
  +1.01017337145485641692e+000
  +1.00915318331693937282e+000
  +1.00815338053768055460e+000
  +1.00717335815213782091e+000
  +1.00621253489850492890e+000
  +1.00527035206848025517e+000
  +1.00434627242390672741e+000
  +1.00343977917525895016e+000
  +1.00255037501790833510e+000
  +1.00167758122238104157e+000
  +1.00082093677511418939e+000
  +9.99979997566474598791e-001
</dep>
<dep _net0.V R2>
  +5.00000000000000000000e+000
  +5.00000000000000000000e+000
  +5.00000000000000000000e+000
  +5.00000000000000000000e+000
  +5.00000000000000000000e+000
  +5.00000000000000000000e+000
  +5.00000000000000000000e+000
  +5.00000000000000000000e+000
  +5.00000000000000000000e+000
  +5.00000000000000000000e+000
  +5.00000000000000000000e+000
  +5.00000000000000000000e+000
  +5.00000000000000000000e+000
  +5.00000000000000000000e+000
  +5.00000000000000000000e+000
  +5.00000000000000000000e+000
  +5.00000000000000000000e+000
  +5.00000000000000000000e+000
  +5.00000000000000000000e+000
  +5.00000000000000000000e+000
  +5.00000000000000000000e+000
  +5.00000000000000000000e+000
  +5.00000000000000000000e+000
  +5.00000000000000000000e+000
  +5.00000000000000000000e+000
  +5.00000000000000000000e+000
  +5.00000000000000000000e+000
  +5.00000000000000000000e+000
  +5.00000000000000000000e+000
  +5.00000000000000000000e+000
  +5.00000000000000000000e+000
  +5.00000000000000000000e+000
  +5.00000000000000000000e+000
