<Qucs Dataset 0.0.19>
<indep RS 5>
  +0.00000000000000000000e+000
  +1.25000000000000000000e+003
  +2.50000000000000000000e+003
  +3.75000000000000000000e+003
  +5.00000000000000000000e+003
</indep>
<dep gm RS>
  +6.39564392383458902441e-003
  +2.86606055946599883738e-003
  +2.16124969960630177943e-003
  +1.81606658570550110431e-003
  +1.60000000615065970239e-003
</dep>
<dep Vgs.V RS>
  +5.00000000000000000000e+000
  +2.43303027685886119613e+000
  +2.08062484579582829269e+000
  +1.90803328800918103880e+000
  +1.79999999753973538574e+000
</dep>
<dep V1.I RS>
  -1.28412878476691794810e-002
  -2.10357577851291157808e-003
  -1.21775006168167027054e-003
  -8.74524456530886883446e-004
  -6.90000000492052437476e-004
</dep>
<dep Id.I RS>
  +1.27912878476691780488e-002
  +2.05357577851291144694e-003
  +1.16775006168167013940e-003
  +8.24524456530886643880e-004
  +6.40000000492052197910e-004
</dep>
<dep _net3.V RS>
  +0.00000000000000000000e+000
  +2.56696972314113880387e+000
  +2.91937515420417170731e+000
  +3.09196671199081896120e+000
  +3.20000000246026461426e+000
</dep>
<dep _net1.V RS>
  +5.00000000000000000000e+000
  +5.00000000000000000000e+000
  +5.00000000000000000000e+000
  +5.00000000000000000000e+000
  +5.00000000000000000000e+000
</dep>
<dep _net2.V RS>
  +2.20871215233082107687e+000
  +1.29464242214870886016e+001
  +1.38322499383183306065e+001
  +1.41754755434691137594e+001
  +1.43599999995079485871e+001
</dep>
<dep _net4.V RS>
  +2.20871215233082107687e+000
  +1.29464242214870886016e+001
  +1.38322499383183306065e+001
  +1.41754755434691137594e+001
  +1.43599999995079485871e+001
</dep>
<dep _net0.V RS>
  +1.50000000000000000000e+001
  +1.50000000000000000000e+001
  +1.50000000000000000000e+001
  +1.50000000000000000000e+001
  +1.50000000000000000000e+001
</dep>
