
**** 12/05/22 01:31:52 ******* PSpice 17.4.0 (Nov 2018) ******* ID# 0 ********

 ** Profile: "simulation2-sim_tran1"  [ D:\cad\cadence\EED3009-PSpiceFiles\simulation2\sim_tran1.sim ] 


 ****     CIRCUIT DESCRIPTION


******************************************************************************




** Creating circuit file "sim_tran1.cir" 
** WARNING: THIS AUTOMATICALLY GENERATED FILE MAY BE OVERWRITTEN BY SUBSEQUENT SIMULATIONS

*Libraries: 
* Profile Libraries :
* Local Libraries :
.INC "C:/Users/Abdurrahman/Desktop/cd4007/cd4007.lib" 
* From [PSPICE NETLIST] section of D:\cad\cadence\cdssetup\OrCAD_PSpice\17.4.0\PSpice.ini file:

**** INCLUDING cd4007.lib ****
.model nnMOS NMOS (LEVEL=2 VTo=1.4 Kp=.6m LAMBDA=0.005)
.model ppMOS PMOS (LEVEL=2 VTo=-1.0 KP=.6m LAMBDA=0.01)

**** RESUMING sim_tran1.cir ****
.lib "nom.lib" 

*Analysis directives: 
.TRAN  0 15ms 0 
.OPTIONS ADVCONV
.OPTIONS DIGINITSTATE= 0
.PROBE64 V(alias(*)) I(alias(*)) W(alias(*)) D(alias(*)) NOISE(alias(*)) 
.INC "..\simulation2.net" 



**** INCLUDING simulation2.net ****
* source EED3009
E_E1         N126954 0 N129108 N127449 0.1
U_DSTM1         STIM(1,1) $G_DPWR $G_DGND N126672 IO_STM IO_LEVEL=0 
+ 0 0
+ +25us 1
+REPEAT FOREVER
+ +25us 0
+  +25us 1
+ ENDREPEAT
C_out_signal_C22         0 out_signal_N123881  10n  TC=0,0 
X_out_signal_U3         0 out_signal_N123785 N126628 N126624 out_signal_N123881
+  out_signal_N123785 out_signal_N123613 VDD 555C
R_out_signal_R22         out_signal_N123613 out_signal_N123785  54.66k TC=0,0 
R_out_signal_R21         out_signal_N123613 VDD  1k TC=0,0 
C_out_signal_C21         0 out_signal_N123785  330pF IC=-1.65V TC=0,0 
V_V1         N126618 0  
+PULSE 0 5V 1ms 1ns 1ns 249us 1s
V_V2         VDD 0 5V
R_R1         0 N126954  100k TC=0,0 
X_delaydd_U6         delaydd_N00908 N126672 delaydd_N00912 M_UN0001 VDD 0 DFF
X_delaydd_U5         delaydd_N00904 N126672 delaydd_N00908 M_UN0002 VDD 0 DFF
X_delaydd_U10         delaydd_N00924 N126672 N126624 0 VDD 0 DFF
X_delaydd_U9         delaydd_N00920 N126672 delaydd_N00924 M_UN0003 VDD 0 DFF
X_delaydd_U4         delaydd_N00900 N126672 delaydd_N00904 M_UN0004 VDD 0 DFF
X_delaydd_U3         delaydd_N00896 N126672 delaydd_N00900 M_UN0005 VDD 0 DFF
X_delaydd_U1         N126618 N126672 delaydd_N00892 M_UN0006 VDD 0 DFF
X_delaydd_U8         delaydd_N00916 N126672 delaydd_N00920 M_UN0007 VDD 0 DFF
X_delaydd_U2         delaydd_N00892 N126672 delaydd_N00896 M_UN0008 VDD 0 DFF
X_delaydd_U7         delaydd_N00912 N126672 delaydd_N00916 M_UN0009 VDD 0 DFF
V_V3         N127449 0 2.5V
R_R3         N129108 N127449  100k TC=0,0 
C_C1         N126628 N129108  300p  TC=0,0 

**** RESUMING sim_tran1.cir ****
.END


**** Generated AtoD and DtoA Interfaces ****

*
* Analog/Digital interface for node 0
*
* Moving X_delaydd_U10.U1:QBAR1 from analog node 0 to new digital node 0$DtoA
X$0_DtoA1
+ 0$DtoA
+ 0
+ VDD
+ 0
+ DtoAdefault
+       PARAMS: DRVH=  50     DRVL=  50     CAPACITANCE=   0     
*
* Analog/Digital interface for node N126618
*
* Moving X_delaydd_U1.U1:D1 from analog node N126618 to new digital node N126618$AtoD
X$N126618_AtoD1
+ N126618
+ N126618$AtoD
+ VDD
+ 0
+ AtoDdefault
+       PARAMS: CAPACITANCE=   0     
*
* Analog/Digital interface for node N126624
*
* Moving X_delaydd_U10.U1:Q1 from analog node N126624 to new digital node N126624$DtoA
X$N126624_DtoA1
+ N126624$DtoA
+ N126624
+ VDD
+ 0
+ DtoAdefault
+       PARAMS: DRVH=  50     DRVL=  50     CAPACITANCE=   0     
*
* Analog/Digital interface power supply subcircuits
*
X$DIGIFPWR 0 DIGIFPWR


**** 12/05/22 01:31:52 ******* PSpice 17.4.0 (Nov 2018) ******* ID# 0 ********

 ** Profile: "simulation2-sim_tran1"  [ D:\cad\cadence\EED3009-PSpiceFiles\simulation2\sim_tran1.sim ] 


 ****     Diode MODEL PARAMETERS


******************************************************************************




               X_out_signal_U3.DIODE 
          IS   10.000000E-15 
          RS     .01         


**** 12/05/22 01:31:52 ******* PSpice 17.4.0 (Nov 2018) ******* ID# 0 ********

 ** Profile: "simulation2-sim_tran1"  [ D:\cad\cadence\EED3009-PSpiceFiles\simulation2\sim_tran1.sim ] 


 ****     Junction FET MODEL PARAMETERS


******************************************************************************




               X_out_signal_U3.JNEMOD 
               NJF             
         VTO   -2.5          
        BETA    5.120000E-06 


**** 12/05/22 01:31:52 ******* PSpice 17.4.0 (Nov 2018) ******* ID# 0 ********

 ** Profile: "simulation2-sim_tran1"  [ D:\cad\cadence\EED3009-PSpiceFiles\simulation2\sim_tran1.sim ] 


 ****     MOSFET MODEL PARAMETERS


******************************************************************************




               nnMOS           ppMOS           
               NMOS            PMOS            
       LEVEL    2               2            
           L  100.000000E-06  100.000000E-06 
           W  100.000000E-06  100.000000E-06 
         VTO    1.4            -1            
          KP  600.000000E-06  600.000000E-06 
       GAMMA    0               0            
         PHI     .6              .6          
      LAMBDA    5.000000E-03     .01         
          IS   10.000000E-15   10.000000E-15 
          JS    0               0            
          PB     .8              .8          
        PBSW     .8              .8          
          CJ    0               0            
        CJSW    0               0            
        CGSO    0               0            
        CGDO    0               0            
        CGBO    0               0            
         TOX  100.000000E-09  100.000000E-09 
          XJ    0               0            
       UCRIT   10.000000E+03   10.000000E+03 
      DIOMOD    1               1            
         VFB    0               0            
        LETA    0               0            
        WETA    0               0            
          U0    0               0            
        TEMP    0               0            
         VDD    5               5            
       XPART    0               0            


               X_out_signal_U3.PCHAN555 
               PMOS            
       LEVEL    1            
           L  100.000000E-06 
           W  100.000000E-06 
         VTO    -.2          
          KP   20.000000E-06 
       GAMMA    0            
         PHI     .6          
      LAMBDA    0            
          IS   10.000000E-15 
          JS    0            
          PB     .8          
        PBSW     .8          
          CJ    0            
        CJSW    0            
        CGSO    1.000000E-12 
        CGDO    1.000000E-12 
        CGBO    1.000000E-12 
         TOX    0            
          XJ    0            
       UCRIT   10.000000E+03 
      DIOMOD    1            
         VFB    0            
        LETA    0            
        WETA    0            
          U0    0            
        TEMP    0            
         VDD    5            
       XPART    0            


               X_out_signal_U3.NCHAN555 
               NMOS            
       LEVEL    1            
           L  100.000000E-06 
           W  100.000000E-06 
         VTO     .2          
          KP   20.000000E-06 
       GAMMA    0            
         PHI     .6          
      LAMBDA    0            
          IS   10.000000E-15 
          JS    0            
          PB     .8          
        PBSW     .8          
          CJ    0            
        CJSW    0            
        CGSO    1.000000E-12 
        CGDO    1.000000E-12 
        CGBO    1.000000E-12 
         TOX    0            
          XJ    0            
       UCRIT   10.000000E+03 
      DIOMOD    1            
         VFB    0            
        LETA    0            
        WETA    0            
          U0    0            
        TEMP    0            
         VDD    5            
       XPART    0            


               X_out_signal_U3.PCHAN555_OUT 
               PMOS            
       LEVEL    1            
           L  100.000000E-06 
           W  100.000000E-06 
         VTO    -.2          
          KP   20.000000E-06 
       GAMMA    0            
         PHI     .6          
      LAMBDA    0            
          IS   10.000000E-15 
          JS    0            
          PB     .8          
        PBSW     .8          
         CBD  200.000000E-12 
          CJ    0            
        CJSW    0            
        CGSO    1.000000E-12 
        CGDO    1.000000E-12 
        CGBO    1.000000E-12 
         TOX    0            
          XJ    0            
       UCRIT   10.000000E+03 
      DIOMOD    1            
         VFB    0            
        LETA    0            
        WETA    0            
          U0    0            
        TEMP    0            
         VDD    5            
       XPART    0            


**** 12/05/22 01:31:52 ******* PSpice 17.4.0 (Nov 2018) ******* ID# 0 ********

 ** Profile: "simulation2-sim_tran1"  [ D:\cad\cadence\EED3009-PSpiceFiles\simulation2\sim_tran1.sim ] 


 ****     Digital Input MODEL PARAMETERS


******************************************************************************




               DIN74           
      S0NAME 0               
       S0TSW    3.500000E-09 
       S0RLO    7.13         
       S0RHI  389            
      S1NAME 1               
       S1TSW    5.500000E-09 
       S1RLO  467            
       S1RHI  200            
      S2NAME X               
       S2TSW    3.500000E-09 
       S2RLO   42.9          
       S2RHI  116            
      S3NAME R               
       S3TSW    3.500000E-09 
       S3RLO   42.9          
       S3RHI  116            
      S4NAME F               
       S4TSW    3.500000E-09 
       S4RLO   42.9          
       S4RHI  116            
      S5NAME Z               
       S5TSW    3.500000E-09 
       S5RLO  200.000000E+03 
       S5RHI  200.000000E+03 


**** 12/05/22 01:31:52 ******* PSpice 17.4.0 (Nov 2018) ******* ID# 0 ********

 ** Profile: "simulation2-sim_tran1"  [ D:\cad\cadence\EED3009-PSpiceFiles\simulation2\sim_tran1.sim ] 


 ****     Digital Output MODEL PARAMETERS


******************************************************************************




               DO74            
    TIMESTEP  100.000000E-12 
      S0NAME X               
       S0VHI    2            
       S0VLO     .8          
      S1NAME 0               
       S1VHI     .8          
       S1VLO   -1.5          
      S2NAME R               
       S2VHI    1.4          
       S2VLO     .8          
      S3NAME R               
       S3VHI    2            
       S3VLO    1.3          
      S4NAME X               
       S4VHI    2            
       S4VLO     .8          
      S5NAME 1               
       S5VHI    7            
       S5VLO    2            
      S6NAME F               
       S6VHI    2            
       S6VLO    1.3          
      S7NAME F               
       S7VHI    1.4          
       S7VLO     .8          


**** 12/05/22 01:31:52 ******* PSpice 17.4.0 (Nov 2018) ******* ID# 0 ********

 ** Profile: "simulation2-sim_tran1"  [ D:\cad\cadence\EED3009-PSpiceFiles\simulation2\sim_tran1.sim ] 


 ****     Digital Edge Triggered FF MODEL PARAMETERS


******************************************************************************




               D_PLD_EFF       
  TPCLKQLHMN    0            
  TPCLKQLHTY    0            
  TPCLKQLHMX    0            
  TPCLKQHLMN    0            
  TPCLKQHLTY    0            
  TPCLKQHLMX    0            
   TPPCQLHMN    0            
   TPPCQLHTY    0            
   TPPCQLHMX    0            
   TPPCQHLMN    0            
   TPPCQHLTY    0            
   TPPCQHLMX    0            
    TWCLKLMN    0            
    TWCLKLTY    0            
    TWCLKLMX    0            
    TWCLKHMN    0            
    TWCLKHTY    0            
    TWCLKHMX    0            
     TWPCLMN    0            
     TWPCLTY    0            
     TWPCLMX    0            
   TSUDCLKMN    0            
   TSUDCLKTY    0            
   TSUDCLKMX    0            
 TSUPCCLKHMN    0            
 TSUPCCLKHTY    0            
 TSUPCCLKHMX    0            
    THDCLKMN    0            
    THDCLKTY    0            
    THDCLKMX    0            
  TSUCECLKMN    0            
  TSUCECLKTY    0            
  TSUCECLKMX    0            
   THCECLKMN    0            
   THCECLKTY    0            
   THCECLKMX    0            


**** 12/05/22 01:31:52 ******* PSpice 17.4.0 (Nov 2018) ******* ID# 0 ********

 ** Profile: "simulation2-sim_tran1"  [ D:\cad\cadence\EED3009-PSpiceFiles\simulation2\sim_tran1.sim ] 


 ****     Digital IO  MODEL PARAMETERS


******************************************************************************




               IO_STM          IO_PLD          IO_DFT          
        DRVL    0                                            
        DRVH    0                                            
       AtoD1                                 AtoD_STD        
       AtoD2                                 AtoD_STD_NX     
       AtoD3                                 AtoD_STD        
       AtoD4                                 AtoD_STD_NX     
       DtoA1 DtoA_STM                        DtoA_STD        
       DtoA2 DtoA_STM                        DtoA_STD        
       DtoA3 DtoA_STM                        DtoA_STD        
       DtoA4 DtoA_STM                        DtoA_STD        
       TPWRT  100.000000E+03  100.000000E+03  100.000000E+03 


**** 12/05/22 01:31:52 ******* PSpice 17.4.0 (Nov 2018) ******* ID# 0 ********

 ** Profile: "simulation2-sim_tran1"  [ D:\cad\cadence\EED3009-PSpiceFiles\simulation2\sim_tran1.sim ] 


 ****     INITIAL TRANSIENT SOLUTION       TEMPERATURE =   27.000 DEG C


******************************************************************************



 NODE   VOLTAGE     NODE   VOLTAGE     NODE   VOLTAGE     NODE   VOLTAGE


(  VDD)    5.0000  ($G_DGND)    0.0000                   ($G_DPWR)    5.0000    

(N126618)    0.0000                   (N126624)     .0900                       

(N126628) 417.5E-12                   (N126954)-27.76E-18                       

(N127449)    2.5000                   (N129108)    2.5000                       

(X_out_signal_U3.1)    5.0000         (X_out_signal_U3.2)    1.6667             

(X_out_signal_U3.3)  166.6700         (X_out_signal_U3.4)    4.2000             

(X_out_signal_U3.5)    3.9477         (X_out_signal_U3.6)-16.83E+03             

(X_out_signal_U3.7)    4.2000         (X_out_signal_U3.8)    -.6686             

(X_out_signal_U3.9)    5.0000         (out_signal_N123613)     .1037            

(out_signal_N123785)    1.6500        (out_signal_N123881)    3.3333            

(X_out_signal_U3.10) 347.9E-12        (X_out_signal_U3.11)    5.0000            

(X_out_signal_U3.12) 26.15E-12        (X_out_signal_U3.13)    5.0000            

(X_out_signal_U3.14)    5.0000        (X_out_signal_U3.15)    2.5000            

(X_out_signal_U3.16)     .2000        (X_out_signal_U3.17) 100.2E-12            

(X_out_signal_U3.18)    5.0000        (X_out_signal_U3.19)    4.8000            

(X_out_signal_U3.20)    5.0000        (X_out_signal_U3.21)     .1314            

(X_out_signal_U3.22)    2.5000        (X_out_signal_U3.23)    4.7477            

(X_out_signal_U3.24) 601.9E-09        (X_out_signal_U3.25)    5.0000            

(X_out_signal_U3.VDD)    5.0000       



 DGTL NODE : STATE  DGTL NODE : STATE  DGTL NODE : STATE  DGTL NODE : STATE


(M_UN0006) : 1     (M_UN0003) : 1     ( N126672) : 0     (delaydd_N00900) : 0   

(delaydd_N00916) : 0                  (   $D_HI) : 1     (M_UN0007) : 1         

(M_UN0004) : 1     (delaydd_N00904) : 0                  (delaydd_N00920) : 0   

(M_UN0001) : 1     (N126624$DtoA) : 0                    (delaydd_N00892) : 0   

(M_UN0008) : 1     (delaydd_N00908) : 0                  (delaydd_N00924) : 0   

(M_UN0005) : 1     (delaydd_N00896) : 0                  (M_UN0002) : 1         

(N126618$AtoD) : 0                    (  0$DtoA) : 1     (M_UN0009) : 1         

(delaydd_N00912) : 0                  




    VOLTAGE SOURCE CURRENTS
    NAME         CURRENT

    V_V1         0.000E+00
    V_V2        -4.259E-02
    V_V3        -3.388E-21
    X_out_signal_U3.V_U6_V2   3.958E-12
    X_out_signal_U3.V_U7_V2  -1.683E-03
    X$DIGIFPWR.VDPWR  -5.000E-06
    X$DIGIFPWR.VDGND  -5.000E-06

    TOTAL POWER DISSIPATION   2.14E-01  WATTS



          JOB CONCLUDED

**** 12/05/22 01:31:52 ******* PSpice 17.4.0 (Nov 2018) ******* ID# 0 ********

 ** Profile: "simulation2-sim_tran1"  [ D:\cad\cadence\EED3009-PSpiceFiles\simulation2\sim_tran1.sim ] 


 ****     JOB STATISTICS SUMMARY


******************************************************************************



  Total job time (using Solver 1)   =        2.00
