
**** 12/03/22 20:56:12 ******* PSpice 17.4.0 (Nov 2018) ******* ID# 0 ********

 ** Profile: "Driver-driver_tran1"  [ D:\cad\cadence\eed3009-pspicefiles\driver\driver_tran1.sim ] 


 ****     CIRCUIT DESCRIPTION


******************************************************************************




** Creating circuit file "driver_tran1.cir" 
** WARNING: THIS AUTOMATICALLY GENERATED FILE MAY BE OVERWRITTEN BY SUBSEQUENT SIMULATIONS

*Libraries: 
* Profile Libraries :
* Local Libraries :
.INC "C:/Users/Abdurrahman/Desktop/cd4007/cd4007.lib" 
* From [PSPICE NETLIST] section of D:\cad\cadence\cdssetup\OrCAD_PSpice\17.4.0\PSpice.ini file:

**** INCLUDING cd4007.lib ****
.model nnMOS NMOS (LEVEL=2 VTo=1.4 Kp=.6m LAMBDA=0.005)
.model ppMOS PMOS (LEVEL=2 VTo=-1.0 KP=.6m LAMBDA=0.01)

**** RESUMING driver_tran1.cir ****
.lib "nom.lib" 

*Analysis directives: 
.TRAN  0 30ms 10ms 1us 
.OPTIONS ADVCONV
.OPTIONS ABSTOL= 1.0u
.OPTIONS GMIN= 1.0E-9
.OPTIONS VNTOL= 1.0m
.PROBE64 V(alias(*)) I(alias(*)) W(alias(*)) D(alias(*)) NOISE(alias(*)) 
.INC "..\Driver.net" 



**** INCLUDING Driver.net ****
* source EED3009
M_M6         VO- /SOUND VDD VDD ppMOS           
V_V1         VDD 0 5V
M_M5         VO- /SOUND 0 0 nnMOS           
M_M4         VO+ SOUND VDD VDD ppMOS           
M_M3         VO+ SOUND 0 0 nnMOS           
M_M2         /SOUND SOUND VDD VDD ppMOS           
M_M1         /SOUND SOUND 0 0 nnMOS           
C_C1         N147900 VO-  1.82nF  TC=0,0 
R_R1         VO+ N147900  10 TC=0,0 
C_C5         0 N22991  10n  TC=0,0 
R_R6         N22937 N22819  56k TC=0,0 
C_C4         0 N22937  330pF IC=1.65V TC=0,0 
R_R5         N22819 VDD  1k TC=0,0 
X_U2         0 N22937 SOUND TRANSMIT N22991 N22937 N22819 VDD 555C
R_R7         N26138 VDD  89k TC=0,0 
R_R8         N26232 N26138  3.6k TC=0,0 
X_U3         0 N26232 N28083 VDD N26266 N26232 N26138 VDD 555C
C_C7         0 N26266  10n  TC=0,0 
C_C6         0 N26232  100nF IC=1.65V TC=0,0 
X_U1A         N28083 TRANSMIT $G_DPWR $G_DGND 74HC14 PARAMS:
+ IO_LEVEL=0 MNTYMXDLY=0

**** RESUMING driver_tran1.cir ****
.END


**** Generated AtoD and DtoA Interfaces ****

*
* Analog/Digital interface for node TRANSMIT
*
* Moving X_U1A.U1:OUT1 from analog node TRANSMIT to new digital node TRANSMIT$DtoA
X$TRANSMIT_DtoA1
+ TRANSMIT$DtoA
+ TRANSMIT
+ $G_DPWR
+ $G_DGND
+ DtoA_HC
+       PARAMS: DRVH=  87     DRVL=  87     CAPACITANCE=   0     
*
* Analog/Digital interface for node N28083
*
* Moving X_U1A.U1:IN1 from analog node N28083 to new digital node N28083$AtoD
X$N28083_AtoD1
+ N28083
+ N28083$AtoD
+ $G_DPWR
+ $G_DGND
+ AtoD_HC_ST
+       PARAMS: CAPACITANCE=   3.5000E-12
*
* Analog/Digital interface power supply subcircuits
*
X$DIGIFPWR 0 DIGIFPWR


**** 12/03/22 20:56:12 ******* PSpice 17.4.0 (Nov 2018) ******* ID# 0 ********

 ** Profile: "Driver-driver_tran1"  [ D:\cad\cadence\eed3009-pspicefiles\driver\driver_tran1.sim ] 


 ****     Diode MODEL PARAMETERS


******************************************************************************




               X_U2.DIODE      X_U3.DIODE      
          IS   10.000000E-15   10.000000E-15 
          RS     .01             .01         


**** 12/03/22 20:56:12 ******* PSpice 17.4.0 (Nov 2018) ******* ID# 0 ********

 ** Profile: "Driver-driver_tran1"  [ D:\cad\cadence\eed3009-pspicefiles\driver\driver_tran1.sim ] 


 ****     Junction FET MODEL PARAMETERS


******************************************************************************




               X_U2.JNEMOD     X_U3.JNEMOD     
               NJF             NJF             
         VTO   -2.5            -2.5          
        BETA    5.120000E-06    5.120000E-06 


**** 12/03/22 20:56:12 ******* PSpice 17.4.0 (Nov 2018) ******* ID# 0 ********

 ** Profile: "Driver-driver_tran1"  [ D:\cad\cadence\eed3009-pspicefiles\driver\driver_tran1.sim ] 


 ****     MOSFET MODEL PARAMETERS


******************************************************************************




               nnMOS           ppMOS           X_U2.PCHAN555   X_U2.NCHAN555   
               NMOS            PMOS            PMOS            NMOS            
       LEVEL    2               2               1               1            
           L  100.000000E-06  100.000000E-06  100.000000E-06  100.000000E-06 
           W  100.000000E-06  100.000000E-06  100.000000E-06  100.000000E-06 
         VTO    1.4            -1               -.2              .2          
          KP  600.000000E-06  600.000000E-06   20.000000E-06   20.000000E-06 
       GAMMA    0               0               0               0            
         PHI     .6              .6              .6              .6          
      LAMBDA    5.000000E-03     .01            0               0            
          IS   10.000000E-15   10.000000E-15   10.000000E-15   10.000000E-15 
          JS    0               0               0               0            
          PB     .8              .8              .8              .8          
        PBSW     .8              .8              .8              .8          
          CJ    0               0               0               0            
        CJSW    0               0               0               0            
        CGSO    0               0               1.000000E-12    1.000000E-12 
        CGDO    0               0               1.000000E-12    1.000000E-12 
        CGBO    0               0               1.000000E-12    1.000000E-12 
         TOX  100.000000E-09  100.000000E-09    0               0            
          XJ    0               0               0               0            
       UCRIT   10.000000E+03   10.000000E+03   10.000000E+03   10.000000E+03 
      DIOMOD    1               1               1               1            
         VFB    0               0               0               0            
        LETA    0               0               0               0            
        WETA    0               0               0               0            
          U0    0               0               0               0            
        TEMP    0               0               0               0            
         VDD    5               5               5               5            
       XPART    0               0               0               0            


               X_U2.PCHAN555_OUT               X_U3.PCHAN555   X_U3.NCHAN555   
               PMOS                            PMOS            NMOS            
       LEVEL    1                               1               1            
           L  100.000000E-06                  100.000000E-06  100.000000E-06 
           W  100.000000E-06                  100.000000E-06  100.000000E-06 
         VTO    -.2                             -.2              .2          
          KP   20.000000E-06                   20.000000E-06   20.000000E-06 
       GAMMA    0                               0               0            
         PHI     .6                              .6              .6          
      LAMBDA    0                               0               0            
          IS   10.000000E-15                   10.000000E-15   10.000000E-15 
          JS    0                               0               0            
          PB     .8                              .8              .8          
        PBSW     .8                              .8              .8          
         CBD  200.000000E-12                                                 
          CJ    0                               0               0            
        CJSW    0                               0               0            
        CGSO    1.000000E-12                    1.000000E-12    1.000000E-12 
        CGDO    1.000000E-12                    1.000000E-12    1.000000E-12 
        CGBO    1.000000E-12                    1.000000E-12    1.000000E-12 
         TOX    0                               0               0            
          XJ    0                               0               0            
       UCRIT   10.000000E+03                   10.000000E+03   10.000000E+03 
      DIOMOD    1                               1               1            
         VFB    0                               0               0            
        LETA    0                               0               0            
        WETA    0                               0               0            
          U0    0                               0               0            
        TEMP    0                               0               0            
         VDD    5                               5               5            
       XPART    0                               0               0            


               X_U3.PCHAN555_OUT 
               PMOS            
       LEVEL    1            
           L  100.000000E-06 
           W  100.000000E-06 
         VTO    -.2          
          KP   20.000000E-06 
       GAMMA    0            
         PHI     .6          
      LAMBDA    0            
          IS   10.000000E-15 
          JS    0            
          PB     .8          
        PBSW     .8          
         CBD  200.000000E-12 
          CJ    0            
        CJSW    0            
        CGSO    1.000000E-12 
        CGDO    1.000000E-12 
        CGBO    1.000000E-12 
         TOX    0            
          XJ    0            
       UCRIT   10.000000E+03 
      DIOMOD    1            
         VFB    0            
        LETA    0            
        WETA    0            
          U0    0            
        TEMP    0            
         VDD    5            
       XPART    0            


**** 12/03/22 20:56:12 ******* PSpice 17.4.0 (Nov 2018) ******* ID# 0 ********

 ** Profile: "Driver-driver_tran1"  [ D:\cad\cadence\eed3009-pspicefiles\driver\driver_tran1.sim ] 


 ****     Digital Input MODEL PARAMETERS


******************************************************************************




               DIN74HC         
      S0NAME 0               
       S0TSW    5.000000E-09 
       S0RLO    1            
       S0RHI  100.000000E+03 
      S1NAME 1               
       S1TSW    5.000000E-09 
       S1RLO  100.000000E+03 
       S1RHI    1            
      S2NAME X               
       S2TSW    5.000000E-09 
       S2RLO  110            
       S2RHI  100            
      S3NAME R               
       S3TSW    5.000000E-09 
       S3RLO  110            
       S3RHI  100            
      S4NAME F               
       S4TSW    5.000000E-09 
       S4RLO  110            
       S4RHI  100            
      S5NAME Z               
       S5TSW    5.000000E-09 
       S5RLO  200.000000E+03 
       S5RHI  200.000000E+03 


**** 12/03/22 20:56:12 ******* PSpice 17.4.0 (Nov 2018) ******* ID# 0 ********

 ** Profile: "Driver-driver_tran1"  [ D:\cad\cadence\eed3009-pspicefiles\driver\driver_tran1.sim ] 


 ****     Digital Output MODEL PARAMETERS


******************************************************************************




               DO74HC_ST       
    TIMESTEP  100.000000E-12 
      S0NAME 0               
       S0VHI     .55         
       S0VLO   -1.3          
      S1NAME 1               
       S1VHI    1.3          
       S1VLO     .33         


**** 12/03/22 20:56:12 ******* PSpice 17.4.0 (Nov 2018) ******* ID# 0 ********

 ** Profile: "Driver-driver_tran1"  [ D:\cad\cadence\eed3009-pspicefiles\driver\driver_tran1.sim ] 


 ****     Digital Gate MODEL PARAMETERS


******************************************************************************




               D_HC14          
      TPLHMN    4.800000E-09 
      TPLHTY   12.000000E-09 
      TPLHMX   31.000000E-09 
      TPHLMN    4.800000E-09 
      TPHLTY   12.000000E-09 
      TPHLMX   31.000000E-09 


**** 12/03/22 20:56:12 ******* PSpice 17.4.0 (Nov 2018) ******* ID# 0 ********

 ** Profile: "Driver-driver_tran1"  [ D:\cad\cadence\eed3009-pspicefiles\driver\driver_tran1.sim ] 


 ****     Digital IO  MODEL PARAMETERS


******************************************************************************




               IO_HC_ST        IO_HC_DTOA      IO_HC           
        INLD    3.500000E-12                    3.500000E-12 
        DRVL   87                              87            
        DRVH   87                              87            
       AtoD1 AtoD_HC_ST                      AtoD_HC         
       AtoD2 AtoD_HC_ST                      AtoD_HC_NX      
       AtoD3 AtoD_HC_ST                      AtoD_HC         
       AtoD4 AtoD_HC_ST                      AtoD_HC_NX      
       DtoA1 DtoA_HC                         DtoA_HC         
       DtoA2 DtoA_HC                         DtoA_HC         
       DtoA3 DtoA_HC_E                       DtoA_HC_E       
       DtoA4 DtoA_HC_E                       DtoA_HC_E       
      TSWHL1    2.742000E-09                    2.742000E-09 
      TSWHL2    2.742000E-09                    2.742000E-09 
      TSWHL3    2.751000E-09                    2.751000E-09 
      TSWHL4    2.751000E-09                    2.751000E-09 
      TSWLH1    2.758000E-09                    2.758000E-09 
      TSWLH2    2.758000E-09                    2.758000E-09 
      TSWLH3    2.763000E-09                    2.763000E-09 
      TSWLH4    2.763000E-09                    2.763000E-09 
       TPWRT    2.000000E-09  100.000000E+03    2.000000E-09 


**** 12/03/22 20:56:12 ******* PSpice 17.4.0 (Nov 2018) ******* ID# 0 ********

 ** Profile: "Driver-driver_tran1"  [ D:\cad\cadence\eed3009-pspicefiles\driver\driver_tran1.sim ] 


 ****     INITIAL TRANSIENT SOLUTION       TEMPERATURE =   27.000 DEG C


******************************************************************************



 NODE   VOLTAGE     NODE   VOLTAGE     NODE   VOLTAGE     NODE   VOLTAGE


(  VDD)    5.0000  (  VO+)    5.0000  (  VO-) 2.315E-06  (SOUND) 416.7E-09      

(/SOUND)    5.0000 (N22819)     .1025 (N22937)   -1.6500 (N22991)    3.3333     

(N26138)    -.4350 (N26232)   -1.6500 (N26266)    3.3333 (N28083)    5.0000     

(X_U2.1)    5.0000 (X_U2.2)    1.6667 (X_U2.3) 33.17E+03 (X_U2.4)    4.2000     

(X_U2.5)    4.0861 (X_U2.6)-49.83E+03 (X_U2.7)    4.2000 (X_U2.8)    -.6967     

(X_U2.9)    5.0000 (X_U3.1) 416.7E-09 (X_U3.2)    1.6667 (X_U3.3) 33.17E+03     

(X_U3.4)    4.2000 (X_U3.5)    4.0861 (X_U3.6)-49.83E+03 (X_U3.7)    4.2000     

(X_U3.8)    -.6967 (X_U3.9) 26.04E-09 ($G_DGND)    0.0000                       

($G_DPWR)    5.0000                   (N147900)    5.0000                       

(X_U2.10) 347.2E-09                   (X_U2.11)    5.0000                       

(X_U2.12) 23.12E-09                   (X_U2.13)    5.0000                       

(X_U2.14)    5.0000                   (X_U2.15)    5.2011                       

(X_U2.16)     .2013                   (X_U2.17) 99.97E-09                       

(X_U2.18)    5.0000                   (X_U2.19)    4.7990                       

(X_U2.20)    5.0000                   (X_U2.21)     .1033                       

(X_U2.22)    2.5000                   (X_U2.23)    4.8861                       

(X_U2.24) 106.7E-09                   (X_U2.25)    4.9999                       

(X_U3.10)    5.0000                   (X_U3.11)    2.5000                       

(X_U3.12)    5.0000                   (X_U3.13) 416.7E-09                       

(X_U3.14) 347.2E-09                   (X_U3.15)    5.0000                       

(X_U3.16)    5.0000                   (X_U3.17)    5.0000                       

(X_U3.18) 416.7E-09                   (X_U3.19) 208.3E-09                       

(X_U3.20)    5.0000                   (X_U3.21)     .1033                       

(X_U3.22)    -.0965                   (X_U3.23)    4.8861                       

(X_U3.24) 106.7E-09                   (X_U3.25) 104.2E-09                       

(TRANSMIT)     .0022                  (X_U2.VDD)    5.0000                      

(X_U3.VDD)    5.0000                  (X$N28083_AtoD1.NORM)    1.0000           

(X$TRANSMIT_DtoA1.DGND_OL)     .0022  (X$TRANSMIT_DtoA1.DPWR_OH)    4.9975  



 DGTL NODE : STATE  DGTL NODE : STATE  DGTL NODE : STATE  DGTL NODE : STATE


(N28083$AtoD) : 1  (TRANSMIT$DtoA) : 0                   




    VOLTAGE SOURCE CURRENTS
    NAME         CURRENT

    V_V1        -5.097E-03
    X_U2.V_U6_V2   4.086E-09
    X_U2.V_U7_V2  -4.983E-03
    X_U3.V_U6_V2   4.086E-09
    X_U3.V_U7_V2  -4.983E-03
    X$DIGIFPWR.VDPWR  -5.496E-05
    X$DIGIFPWR.VDGND  -4.995E-06

    TOTAL POWER DISSIPATION   3.37E-02  WATTS

Reducing minimum delta to make the circuit converge.
Reducing minimum delta to make the circuit converge.
Reducing minimum delta to make the circuit converge.
Reducing minimum delta to make the circuit converge.
Reducing minimum delta to make the circuit converge.


          JOB CONCLUDED

**** 12/03/22 20:56:12 ******* PSpice 17.4.0 (Nov 2018) ******* ID# 0 ********

 ** Profile: "Driver-driver_tran1"  [ D:\cad\cadence\eed3009-pspicefiles\driver\driver_tran1.sim ] 


 ****     JOB STATISTICS SUMMARY


******************************************************************************



  License check-out time            =       10.45
  Total job time (using Solver 1)   =        5.25
